Time [s],Channel 0,Channel 1
2.971825500,0,1
2.971825750,1,1
2.971826250,0,1
2.971826750,1,1
2.971827250,0,0
2.971827750,1,1
2.971828250,0,0
2.971828750,1,1
2.971829250,0,0
2.971829750,1,1
2.971830250,0,1
2.971830750,1,1
2.971831250,0,1
2.971831500,1,1
2.971832000,0,1
2.971832250,0,0
2.971832500,1,0
2.971832750,1,1
2.971833000,0,1
2.971833500,1,1
2.971834000,0,0
2.971834500,1,1
2.971835000,0,0
2.971835500,1,1
2.971836000,0,1
2.971836500,1,1
2.971837000,0,1
2.971837500,1,1
2.971838000,0,0
2.971838500,1,1
2.971839000,0,1
2.971839500,1,1
2.971840000,0,0
2.971840500,1,1
2.971841000,0,1
2.971841250,1,1
2.971841750,0,1
2.971842000,0,0
2.971842250,1,0
2.971842500,1,1
2.971842750,0,1
2.971843000,0,0
2.971843250,1,0
2.971843500,1,1
2.971843750,0,1
2.971844250,1,1
2.971844750,0,1
2.971845250,1,1
2.971845750,0,0
2.971846250,1,1
2.971846750,0,1
2.971847250,1,1
2.971847750,0,0
2.971848250,1,1
2.971848750,0,0
2.971849250,1,0
2.971849750,0,1
2.971850250,1,1
2.971850750,0,1
2.971851250,1,1
2.971851500,0,1
2.971851750,0,0
2.971852000,1,0
2.971852250,1,1
2.971852500,0,0
2.971852750,0,1
2.971853000,1,1
2.971853500,0,0
2.971854000,1,0
2.971854500,0,1
2.971855000,1,1
2.971855500,0,0
2.971856000,1,0
2.971856500,0,0
2.971857000,1,0
2.971857500,0,1
2.971858000,1,1
2.971858500,0,1
2.971859000,1,1
2.971859500,0,0
2.971860000,1,0
2.971860500,0,0
2.971861000,1,0
2.971861500,0,1
2.971861750,1,1
2.971862250,0,0
2.971862500,0,1
2.971862750,1,1
2.971863250,0,0
2.971863750,1,0
2.971864250,0,0
2.971864750,1,0
2.971865250,0,1
2.971865750,1,1
2.971866250,0,1
2.971866750,1,1
2.971867250,0,0
2.971867750,1,0
2.971868250,0,0
2.971868750,1,0
2.971869250,0,1
2.971869750,1,1
2.971870250,0,1
2.971870750,1,1
2.971871250,0,1
2.971871750,1,1
2.971872000,0,1
2.971872250,0,0
2.971872500,1,0
2.971873000,0,0
2.971873500,1,0
2.971874000,0,0
2.971874500,1,0
2.971875000,0,1
2.971875500,1,1
2.971876000,0,1
2.971876500,1,1
2.971877000,0,0
2.971877500,1,0
2.971878000,0,0
2.971878500,1,0
2.971879000,0,0
2.971879500,1,0
2.971880000,0,1
2.971880500,1,1
2.971881000,0,1
2.971881500,1,1
2.971882000,0,1
2.971882250,1,1
2.971882750,0,0
2.971883250,1,0
2.971883750,0,0
2.971884000,0,1
2.971884250,1,1
2.971884750,0,0
2.971885250,1,0
2.971885750,0,1
2.971886250,1,1
2.971886750,0,0
2.971887250,1,0
2.971887750,0,0
2.971888250,1,0
2.971888750,0,1
2.971889250,1,1
2.971889750,0,1
2.971890250,1,1
2.971890750,0,0
2.971891250,1,0
2.971891750,0,0
2.971892250,1,0
2.971892500,0,0
2.971892750,0,1
2.971893000,1,1
2.971893500,0,0
2.971893750,0,1
2.971894000,1,1
2.971894500,0,0
2.971895000,1,0
2.971895500,0,0
2.971896000,1,0
2.971896500,0,1
2.971897000,1,1
2.971897500,0,1
2.971898000,1,1
2.971898500,0,0
2.971899000,1,0
2.971899500,0,0
2.971900000,1,0
2.971900500,0,1
2.971901000,1,1
2.971901500,0,1
2.971902000,1,1
2.971902500,0,0
2.971902750,1,0
2.971903250,0,0
2.971903750,1,0
2.971904250,0,1
2.971904750,1,1
2.971905250,0,1
2.971905750,1,1
2.971906250,0,0
2.971906750,1,0
2.971907250,0,0
2.971907750,1,0
2.971908250,0,1
2.971908750,1,1
2.971909250,0,0
2.971909750,1,0
2.971910250,0,1
2.971910750,1,1
2.971911250,0,1
2.971911750,1,1
2.971912250,0,0
2.971912750,1,0
2.971913000,0,0
2.971913500,1,0
2.971914000,0,0
2.971914250,0,1
2.971914500,1,1
2.971915000,0,0
2.971915500,1,0
2.971916000,0,1
2.971916500,1,1
2.971917000,0,1
2.971917500,1,1
2.971918000,0,0
2.971918500,1,0
2.971919000,0,0
2.971919500,1,0
2.971920000,0,1
2.971920500,1,1
2.971921000,0,1
2.971921500,1,1
2.971922000,0,0
2.971922500,1,0
2.971923000,0,0
2.971923250,1,0
2.971923750,0,0
2.971924000,0,1
2.971924250,1,1
2.971924750,0,0
2.971925250,1,0
2.971925750,0,1
2.971926250,1,1
2.971926750,0,1
2.971927250,1,1
2.971927750,0,0
2.971928250,1,0
2.971928750,0,0
2.971929250,1,0
2.971929750,0,0
2.971930250,1,0
2.971930750,0,1
2.971931250,1,1
2.971931750,0,1
2.971932250,1,1
2.971932750,0,1
2.971933250,1,1
2.971933500,0,0
2.971933750,0,1
2.971934000,1,1
2.971934500,0,0
2.971935000,1,0
2.971935500,0,0
2.971936000,1,0
2.971936500,0,0
2.971937000,1,0
2.971937500,0,0
2.971938000,1,0
2.971938500,0,1
2.971939000,1,1
2.971939500,0,1
2.971940000,1,1
2.971940500,0,1
2.971941000,1,1
2.971941500,0,0
2.971942000,1,0
2.971942500,0,0
2.971943000,1,0
2.971943500,0,1
2.971943750,1,1
2.971944250,0,0
2.971944500,0,1
2.971944750,1,1
2.971945250,0,0
2.971945750,1,0
2.971946250,0,0
2.971946750,1,0
2.971947250,0,1
2.971947750,1,1
2.971948250,0,0
2.971948750,1,0
2.971949250,0,1
2.971949750,1,1
2.971950250,0,1
2.971950750,1,1
2.971951250,0,0
2.971951750,1,0
2.971952250,0,0
2.971952750,1,0
2.971953250,0,0
2.971953500,1,0
2.971954000,0,0
2.971954250,0,1
2.971954500,1,1
2.971955000,0,0
2.971955250,0,1
2.971955500,1,1
2.971956000,0,1
2.971956500,1,1
2.971957000,0,0
2.971957500,1,0
2.971958000,0,0
2.971958500,1,0
2.971959000,0,1
2.971959500,1,1
2.971960000,0,0
2.971960500,1,0
2.971961000,0,1
2.971961500,1,1
2.971962000,0,0
2.971962500,1,0
2.971963000,0,1
2.971963500,1,1
2.971963750,0,0
2.971964000,0,1
2.971964250,1,1
2.971964750,0,0
2.971965250,1,0
2.971965750,0,0
2.971966250,1,0
2.971966750,0,0
2.971967250,1,0
2.971967750,0,1
2.971968250,1,1
2.971968750,0,1
2.971969250,1,1
2.971969750,0,1
2.971970250,1,1
2.971970750,0,0
2.971971250,1,0
2.971971750,0,0
2.971972250,1,0
2.971972750,0,1
2.971973250,1,1
2.971973750,0,1
2.971974000,1,1
2.971974500,0,0
2.971975000,1,0
2.971975500,0,0
2.971976000,1,0
2.971976500,0,1
2.971977000,1,1
2.971977500,0,0
2.971978000,1,0
2.971978500,0,1
2.971979000,1,1
2.971979500,0,0
2.971980000,1,0
2.971980500,0,0
2.971981000,1,0
2.971981500,0,1
2.971982000,1,1
2.971982500,0,1
2.971983000,1,1
2.971983500,0,1
2.971984000,1,1
2.971984250,0,0
2.971984750,1,0
2.971985250,0,0
2.971985750,1,0
2.971986250,0,1
2.971986750,1,1
2.971987250,0,0
2.971987750,1,0
2.971988250,0,1
2.971988750,1,1
2.971989250,0,0
2.971989750,1,0
2.971990250,0,1
2.971990750,1,1
2.971991250,0,0
2.971991750,1,0
2.971992250,0,1
2.971992750,1,1
2.971993250,0,1
2.971993750,1,1
2.971994250,0,0
2.971994500,1,0
2.971995000,0,0
2.971995500,1,0
2.971996000,0,0
2.971996500,1,0
2.971997000,0,1
2.971997500,1,1
2.971998000,0,1
2.971998500,1,1
2.971999000,0,0
2.971999500,1,0
2.972000000,0,1
2.972000500,1,1
2.972001000,0,1
2.972001500,1,1
2.972002000,0,0
2.972002500,1,0
2.972003000,0,0
2.972003500,1,0
2.972004000,0,0
2.972004500,1,0
2.972004750,0,0
2.972005000,0,1
2.972005250,1,1
2.972005750,0,0
2.972006000,0,1
2.972006250,1,1
2.972006750,0,0
2.972007250,1,0
2.972007750,0,1
2.972008250,1,1
2.972008750,0,0
2.972009250,1,0
2.972009750,0,1
2.972010250,1,1
2.972010750,0,0
2.972011250,1,0
2.972011750,0,1
2.972012250,1,1
2.972012750,0,0
2.972013250,1,0
2.972013750,0,1
2.972014250,1,1
2.972014750,0,1
2.972015000,1,1
2.972015500,0,0
2.972016000,1,0
2.972016500,0,0
2.972017000,1,0
2.972017500,0,0
2.972018000,1,0
2.972018500,0,1
2.972019000,1,1
2.972019500,0,1
2.972020000,1,1
2.972020500,0,0
2.972021000,1,0
2.972021500,0,0
2.972022000,1,0
2.972022500,0,1
2.972023000,1,1
2.972023500,0,1
2.972024000,1,1
2.972024500,0,1
2.972025000,1,1
2.972025250,0,0
2.972025750,1,0
2.972026250,0,0
2.972026750,1,0
2.972027250,0,0
2.972027750,1,0
2.972028250,0,1
2.972028750,1,1
2.972029250,0,1
2.972029750,1,1
2.972030250,0,1
2.972030750,1,1
2.972031250,0,0
2.972031750,1,0
2.972032250,0,0
2.972032750,1,0
2.972033250,0,0
2.972033750,1,0
2.972034250,0,1
2.972034750,1,1
2.972035250,0,1
2.972035500,1,1
2.972036000,0,0
2.972036500,1,0
2.972037000,0,1
2.972037500,1,1
2.972038000,0,0
2.972038500,1,0
2.972039000,0,1
2.972039500,1,1
2.972040000,0,0
2.972040500,1,0
2.972041000,0,1
2.972041500,1,1
2.972042000,0,0
2.972042500,1,0
2.972043000,0,0
2.972043500,1,0
2.972044000,0,1
2.972044500,1,1
2.972045000,0,1
2.972045500,1,1
2.972045750,0,0
2.972046250,1,0
2.972046750,0,0
2.972047000,0,1
2.972047250,1,1
2.972047750,0,0
2.972048250,1,0
2.972048750,0,0
2.972049250,1,0
2.972049750,0,1
2.972050250,1,1
2.972050750,0,1
2.972051250,1,1
2.972051750,0,1
2.972052250,1,1
2.972052750,0,0
2.972053250,1,0
2.972053750,0,0
2.972054250,1,0
2.972054750,0,0
2.972055250,1,0
2.972055750,0,1
2.972056000,1,1
2.972056500,0,0
2.972056750,0,1
2.972057000,1,1
2.972057500,0,0
2.972058000,1,0
2.972058500,0,0
2.972059000,1,0
2.972059500,0,1
2.972060000,1,1
2.972060500,0,1
2.972061000,1,1
2.972061500,0,1
2.972062000,1,1
2.972062500,0,0
2.972063000,1,0
2.972063500,0,0
2.972064000,1,0
2.972064500,0,0
2.972065000,1,0
2.972065500,0,1
2.972066000,1,1
2.972066250,0,0
2.972066500,0,1
2.972066750,1,1
2.972067250,0,0
2.972067750,1,0
2.972068250,0,0
2.972068750,1,0
2.972069250,0,1
2.972069750,1,1
2.972070250,0,1
2.972070750,1,1
2.972071250,0,0
2.972071750,1,0
2.972072250,0,0
2.972072750,1,0
2.972073250,0,1
2.972073750,1,1
2.972074250,0,1
2.972074750,1,1
2.972075250,0,0
2.972075750,1,0
2.972076250,0,0
2.972076500,1,0
2.972077000,0,0
2.972077250,0,1
2.972077500,1,1
2.972078000,0,1
2.972078500,1,1
2.972079000,0,1
2.972079500,1,1
2.972080000,0,0
2.972080500,1,0
2.972081000,0,0
2.972081500,1,0
2.972082000,0,0
2.972082500,1,0
2.972083000,0,1
2.972083500,1,1
2.972084000,0,0
2.972084500,1,0
2.972085000,0,1
2.972085500,1,1
2.972086000,0,1
2.972086250,1,1
2.972086750,0,0
2.972087250,1,0
2.972087750,0,0
2.972088250,1,0
2.972088750,0,1
2.972089250,1,1
2.972089750,0,1
2.972090250,1,1
2.972090750,0,0
2.972091250,1,0
2.972091750,0,1
2.972092250,1,1
2.972092750,0,0
2.972093250,1,0
2.972093750,0,1
2.972094250,1,1
2.972094750,0,0
2.972095250,1,0
2.972095750,0,0
2.972096250,1,0
2.972096750,0,1
2.972097000,1,1
2.972097500,0,0
2.972097750,0,1
2.972098000,1,1
2.972098500,0,0
2.972099000,1,0
2.972099500,0,0
2.972100000,1,0
2.972100500,0,1
2.972101000,1,1
2.972101500,0,1
2.972102000,1,1
2.972102500,0,0
2.972103000,1,0
2.972103500,0,0
2.972104000,1,0
2.972104500,0,1
2.972105000,1,1
2.972105500,0,1
2.972106000,1,1
2.972106500,0,0
2.972106750,1,0
2.972107250,0,0
2.972107750,1,0
2.972108250,0,0
2.972108500,0,1
2.972108750,1,1
2.972109250,0,1
2.972109750,1,1
2.972110250,0,0
2.972110750,1,0
2.972111250,0,0
2.972111750,1,0
2.972112250,0,1
2.972112750,1,1
2.972113250,0,1
2.972113750,1,1
2.972114250,0,0
2.972114750,1,0
2.972115250,0,0
2.972115750,1,0
2.972116250,0,1
2.972116750,1,1
2.972117000,0,0
2.972117250,0,1
2.972117500,1,1
2.972118000,0,0
2.972118500,1,0
2.972119000,0,0
2.972119500,1,0
2.972120000,0,1
2.972120500,1,1
2.972121000,0,1
2.972121500,1,1
2.972122000,0,0
2.972122500,1,0
2.972123000,0,0
2.972123500,1,0
2.972124000,0,1
2.972124500,1,1
2.972125000,0,0
2.972125500,1,0
2.972126000,0,1
2.972126500,1,1
2.972127000,0,0
2.972127250,1,0
2.972127750,0,0
2.972128000,0,1
2.972128250,1,1
2.972128750,0,0
2.972129000,0,1
2.972129250,1,1
2.972129750,0,0
2.972130250,1,0
2.972130750,0,0
2.972131250,1,0
2.972131750,0,1
2.972132250,1,1
2.972132750,0,1
2.972133250,1,1
2.972133750,0,0
2.972134250,1,0
2.972134750,0,1
2.972135250,1,1
2.972135750,0,0
2.972136250,1,0
2.972136750,0,0
2.972137250,1,0
2.972137500,0,0
2.972137750,0,1
2.972138000,1,1
2.972138500,0,0
2.972138750,0,1
2.972139000,1,1
2.972139500,0,0
2.972140000,1,0
2.972140500,0,0
2.972141000,1,0
2.972141500,0,1
2.972142000,1,1
2.972142500,0,0
2.972143000,1,0
2.972143500,0,1
2.972144000,1,1
2.972144500,0,0
2.972145000,1,0
2.972145500,0,1
2.972146000,1,1
2.972146500,0,0
2.972147000,1,0
2.972147500,0,1
2.972147750,1,1
2.972148250,0,0
2.972148500,0,1
2.972148750,1,1
2.972149250,0,0
2.972149750,1,0
2.972150250,0,0
2.972150750,1,0
2.972151250,0,1
2.972151750,1,1
2.972152250,0,0
2.972152750,1,0
2.972153250,0,1
2.972153750,1,1
2.972154250,0,1
2.972154750,1,1
2.972155250,0,0
2.972155750,1,0
2.972156250,0,0
2.972156750,1,0
2.972157250,0,1
2.972157750,1,1
2.972158000,0,0
2.972158500,1,0
2.972159000,0,0
2.972159250,0,1
2.972159500,1,1
2.972160000,0,1
2.972160500,1,1
2.972161000,0,0
2.972161500,1,0
2.972162000,0,0
2.972162500,1,0
2.972163000,0,0
2.972163500,1,0
2.972164000,0,1
2.972164500,1,1
2.972165000,0,1
2.972165500,1,1
2.972166000,0,1
2.972166500,1,1
2.972167000,0,0
2.972167500,1,0
2.972168000,0,0
2.972168250,1,0
2.972168750,0,0
2.972169000,0,1
2.972169250,1,1
2.972169750,0,1
2.972170250,1,1
2.972170750,0,0
2.972171250,1,0
2.972171750,0,0
2.972172250,1,0
2.972172750,0,1
2.972173250,1,1
2.972173750,0,1
2.972174250,1,1
2.972174750,0,0
2.972175250,1,0
2.972175750,0,0
2.972176250,1,0
2.972176750,0,1
2.972177250,1,1
2.972177750,0,0
2.972178250,1,0
2.972178500,0,0
2.972179000,1,0
2.972179500,0,0
2.972179750,0,1
2.972180000,1,1
2.972180500,0,1
2.972181000,1,1
2.972181500,0,1
2.972182000,1,1
2.972182500,0,0
2.972183000,1,0
2.972183500,0,0
2.972184000,1,0
2.972184500,0,0
2.972185000,1,0
2.972185500,0,1
2.972186000,1,1
2.972186500,0,1
2.972187000,1,1
2.972187500,0,1
2.972188000,1,1
2.972188500,0,0
2.972188750,1,0
2.972189250,0,0
2.972189750,1,0
2.972190250,0,1
2.972190750,1,1
2.972191250,0,0
2.972191750,1,0
2.972192250,0,1
2.972192750,1,1
2.972193250,0,1
2.972193750,1,1
2.972194250,0,0
2.972194750,1,0
2.972195250,0,0
2.972195750,1,0
2.972196250,0,0
2.972196750,1,0
2.972197250,0,1
2.972197750,1,0
2.972198250,0,1
2.972198750,1,1
2.972199000,0,0
2.972199250,0,1
2.972199500,1,1
2.972200000,0,0
2.972200500,1,0
2.972201000,0,0
2.972201500,1,0
2.972202000,0,0
2.972202500,1,0
2.972203000,0,1
2.972203500,1,1
2.972204000,0,1
2.972204500,1,1
2.972205000,0,1
2.972205500,1,1
2.972206000,0,0
2.972206500,1,0
2.972207000,0,0
2.972207500,1,0
2.972208000,0,1
2.972208500,1,1
2.972209000,0,0
2.972209250,1,0
2.972209750,0,0
2.972210000,0,1
2.972210250,1,1
2.972210750,0,0
2.972211250,1,0
2.972211750,0,0
2.972212250,1,0
2.972212750,0,1
2.972213250,1,1
2.972213750,0,1
2.972214250,1,1
2.972214750,0,1
2.972215250,1,1
2.972215750,0,0
2.972216250,1,0
2.972216750,0,0
2.972217250,1,0
2.972217750,0,0
2.972218250,1,0
2.972218750,0,1
2.972219000,1,1
2.972219500,0,0
2.972219750,0,1
2.972220000,1,1
2.972220500,0,0
2.972220750,0,1
2.972221000,1,1
2.972221500,0,0
2.972222000,1,0
2.972222500,0,0
2.972223000,1,0
2.972223500,0,0
2.972224000,1,0
2.972224500,0,1
2.972225000,1,1
2.972225500,0,1
2.972226000,1,1
2.972226500,0,1
2.972227000,1,1
2.972227500,0,0
2.972228000,1,0
2.972228500,0,0
2.972229000,1,0
2.972229250,0,0
2.972229750,1,0
2.972230250,0,0
2.972230500,0,1
2.972230750,1,1
2.972231250,0,1
2.972231750,1,1
2.972232250,0,0
2.972232750,1,0
2.972233250,0,1
2.972233750,1,1
2.972234250,0,0
2.972234750,1,0
2.972235250,0,0
2.972235750,1,0
2.972236250,0,1
2.972236750,1,1
2.972237250,0,1
2.972237750,1,1
2.972238250,0,1
2.972238750,1,1
2.972239250,0,0
2.972239500,1,0
2.972240000,0,0
2.972240500,1,0
2.972241000,0,0
2.972241500,1,0
2.972242000,0,1
2.972242500,1,1
2.972243000,0,1
2.972243500,1,1
2.972244000,0,1
2.972244500,1,1
2.972245000,0,0
2.972245500,1,0
2.972246000,0,0
2.972246500,1,0
2.972247000,0,0
2.972247500,1,0
2.972248000,0,1
2.972248500,1,1
2.972249000,0,0
2.972249500,1,0
2.972249750,0,0
2.972250000,0,1
2.972250250,1,1
2.972250750,0,0
2.972251000,0,1
2.972251250,1,1
2.972251750,0,0
2.972252250,1,0
2.972252750,0,0
2.972253250,1,0
2.972253750,0,1
2.972254250,1,1
2.972254750,0,1
2.972255250,1,1
2.972255750,0,1
2.972256250,1,1
2.972256750,0,0
2.972257250,1,0
2.972257750,0,0
2.972258250,1,0
2.972258750,0,1
2.972259250,1,1
2.972259750,0,0
2.972260000,1,0
2.972260500,0,0
2.972261000,1,0
2.972261500,0,0
2.972261750,0,1
2.972262000,1,1
2.972262500,0,1
2.972263000,1,1
2.972263500,0,0
2.972264000,1,0
2.972264500,0,1
2.972265000,1,1
2.972265500,0,0
2.972266000,1,0
2.972266500,0,0
2.972267000,1,0
2.972267500,0,1
2.972268000,1,1
2.972268500,0,1
2.972269000,1,1
2.972269500,0,1
2.972270000,1,1
2.972270250,0,0
2.972270750,1,0
2.972271250,0,0
2.972271750,1,0
2.972272250,0,0
2.972272750,1,0
2.972273250,0,1
2.972273750,1,1
2.972274250,0,0
2.972274750,1,0
2.972275250,0,1
2.972275750,1,1
2.972276250,0,0
2.972276750,1,0
2.972277250,0,1
2.972277750,1,1
2.972278250,0,1
2.972278750,1,1
2.972279250,0,0
2.972279750,1,0
2.972280250,0,0
2.972280500,1,0
2.972281000,0,0
2.972281250,0,1
2.972281500,1,1
2.972282000,0,1
2.972282500,1,1
2.972283000,0,0
2.972283500,1,0
2.972284000,0,1
2.972284500,1,1
2.972285000,0,0
2.972285500,1,0
2.972286000,0,0
2.972286500,1,0
2.972287000,0,1
2.972287500,1,1
2.972288000,0,1
2.972288500,1,1
2.972289000,0,1
2.972289500,1,1
2.972290000,0,0
2.972290500,1,0
2.972290750,0,0
2.972291250,1,0
2.972291750,0,0
2.972292250,1,0
2.972292750,0,1
2.972293250,1,1
2.972293750,0,1
2.972294250,1,1
2.972294750,0,0
2.972295250,1,0
2.972295750,0,0
2.972296250,1,0
2.972296750,0,0
2.972297250,1,0
2.972297750,0,1
2.972298250,1,1
2.972298500,1,0
2.972298750,0,1
2.972299250,1,1
2.972299750,0,1
2.972300250,1,1
2.972300750,0,0
2.972301000,1,0
2.972301500,0,0
2.972301750,0,1
2.972302000,1,1
2.972302500,0,1
2.972303000,1,1
2.972303500,0,0
2.972304000,1,0
2.972304500,0,0
2.972305000,1,0
2.972305500,0,0
2.972306000,1,0
2.972306500,0,0
2.972307000,1,0
2.972307500,0,1
2.972308000,1,1
2.972308500,0,1
2.972309000,1,1
2.972309500,0,1
2.972310000,1,1
2.972310500,0,0
2.972311000,1,0
2.972311250,0,0
2.972311750,1,0
2.972312250,0,0
2.972312500,0,1
2.972312750,1,1
2.972313250,0,1
2.972313750,1,1
2.972314250,0,0
2.972314750,1,0
2.972315250,0,0
2.972315750,1,0
2.972316250,0,1
2.972316750,1,1
2.972317250,0,1
2.972317750,1,1
2.972318250,0,0
2.972318750,1,0
2.972319250,0,1
2.972319750,1,1
2.972320250,0,0
2.972320750,1,0
2.972321250,0,0
2.972321500,1,0
2.972322000,0,0
2.972322250,0,1
2.972322500,1,1
2.972323000,0,1
2.972323500,1,1
2.972324000,0,0
2.972324500,1,0
2.972325000,0,0
2.972325500,1,0
2.972326000,0,1
2.972326500,1,1
2.972327000,0,0
2.972327500,1,0
2.972328000,0,1
2.972328500,1,1
2.972329000,0,0
2.972329500,1,0
2.972330000,0,1
2.972330500,1,1
2.972331000,0,1
2.972331500,1,1
2.972331750,0,0
2.972332250,1,0
2.972332750,0,0
2.972333250,1,0
2.972333750,0,0
2.972334250,1,0
2.972334750,0,1
2.972335250,1,1
2.972335750,0,1
2.972336250,1,1
2.972336750,0,1
2.972337250,1,1
2.972337750,0,0
2.972338250,1,0
2.972338750,0,0
2.972339250,1,0
2.972339750,0,1
2.972340250,1,1
2.972340750,0,1
2.972341250,1,1
2.972341750,0,1
2.972342000,1,1
2.972342500,0,0
2.972343000,1,0
2.972343500,0,0
2.972344000,1,0
2.972344500,0,0
2.972345000,1,0
2.972345500,0,0
2.972346000,1,0
2.972346500,0,1
2.972347000,1,1
2.972347500,0,1
2.972348000,1,1
2.972348500,0,1
2.972349000,1,1
2.972349500,0,0
2.972350000,1,0
2.972350500,0,0
2.972351000,1,0
2.972351500,0,0
2.972351750,1,0
2.972352250,0,0
2.972352500,0,1
2.972352750,1,1
2.972353250,0,0
2.972353500,0,1
2.972353750,1,1
2.972354250,0,1
2.972354750,1,1
2.972355250,0,0
2.972355750,1,0
2.972356250,0,0
2.972356750,1,0
2.972357250,0,1
2.972357750,1,1
2.972358250,0,0
2.972358750,1,0
2.972359250,0,1
2.972359750,1,1
2.972360250,0,1
2.972360750,1,1
2.972361250,0,0
2.972361750,1,0
2.972362000,0,0
2.972362500,1,0
2.972363000,0,0
2.972363250,0,1
2.972363500,1,1
2.972364000,0,0
2.972364500,1,0
2.972365000,0,1
2.972365500,1,1
2.972366000,0,0
2.972366500,1,0
2.972367000,0,1
2.972367500,1,1
2.972368000,0,1
2.972368500,1,1
2.972369000,0,0
2.972369500,1,0
2.972370000,0,0
2.972370500,1,0
2.972371000,0,0
2.972371500,1,0
2.972372000,0,1
2.972372250,1,1
2.972372750,0,0
2.972373000,0,1
2.972373250,1,1
2.972373750,0,0
2.972374250,1,0
2.972374750,0,1
2.972375250,1,1
2.972375750,0,1
2.972376250,1,1
2.972376750,0,0
2.972377250,1,0
2.972377750,0,0
2.972378250,1,0
2.972378750,0,0
2.972379250,1,0
2.972379750,0,1
2.972380250,1,1
2.972380750,0,1
2.972381250,1,1
2.972381750,0,1
2.972382250,1,1
2.972382500,0,0
2.972383000,1,0
2.972383500,0,0
2.972384000,1,0
2.972384500,0,1
2.972385000,1,1
2.972385500,0,1
2.972386000,1,1
2.972386500,0,0
2.972387000,1,0
2.972387500,0,0
2.972388000,1,0
2.972388500,0,0
2.972389000,1,0
2.972389500,0,1
2.972390000,1,1
2.972390500,0,1
2.972391000,1,1
2.972391500,0,0
2.972392000,1,0
2.972392500,0,1
2.972392750,1,1
2.972393250,0,0
2.972393750,1,0
2.972394250,0,1
2.972394750,1,1
2.972395250,0,1
2.972395750,1,1
2.972396250,0,0
2.972396750,1,0
2.972397250,0,0
2.972397750,1,0
2.972398250,0,0
2.972398750,1,0
2.972399250,0,1
2.972399750,1,1
2.972400250,0,1
2.972400750,1,1
2.972401250,0,0
2.972401750,1,0
2.972402250,0,0
2.972402750,1,0
2.972403000,0,0
2.972403250,0,1
2.972403500,1,1
2.972404000,0,0
2.972404250,0,1
2.972404500,1,1
2.972405000,0,1
2.972405500,1,1
2.972406000,0,0
